T772C 000:014.743   SEGGER J-Link V7.82 Log File
T772C 000:014.921   DLL Compiled: Oct 13 2022 13:32:51
T772C 000:014.946   Logging started @ 2025-09-06 11:58
T772C 000:014.970 - 14.983ms
T772C 000:015.020 JLINK_SetWarnOutHandler(...)
T772C 000:015.056 - 0.047ms
T772C 000:015.082 JLINK_OpenEx(...)
T772C 000:017.082   Firmware: J-Link V9 compiled May  7 2021 16:26:12
T772C 000:017.679   Firmware: J-Link V9 compiled May  7 2021 16:26:12
T772C 000:017.859   Decompressing FW timestamp took 106 us
T772C 000:025.420   Hardware: V9.70
T772C 000:025.486   S/N: 20721895
T772C 000:025.531   OEM: SEGGER
T772C 000:025.577   Feature(s): JFlash
T772C 000:027.742   TELNET listener socket opened on port 19021
T772C 000:027.883   WEBSRV WEBSRV_Init(): Starting webserver thread(s)
T772C 000:028.160   WEBSRV Webserver running on local port 19080
T772C 000:036.341 - 21.303ms returns "O.K."
T772C 000:036.451 JLINK_GetEmuCaps()
T772C 000:036.484 - 0.048ms returns 0xB9FF7BBF
T772C 000:036.523 JLINK_TIF_GetAvailable(...)
T772C 000:036.895 - 0.395ms
T772C 000:036.941 JLINK_SetErrorOutHandler(...)
T772C 000:036.966 - 0.037ms
T772C 000:037.020 JLINK_ExecCommand("ProjectFile = "D:\STM32_dev\test\MDK-ARM\JLinkSettings.ini"", ...). 
T772C 000:049.369 - 12.375ms returns 0x00
T772C 000:049.439 JLINK_ExecCommand("Device = STM32F407ZGTx", ...). 
T772C 000:049.969   Device "STM32F407ZG" selected.
T772C 000:050.746 - 1.296ms returns 0x00
T772C 000:050.790 JLINK_ExecCommand("DisableConnectionTimeout", ...). 
T772C 000:050.821 - 0.013ms returns 0x01
T772C 000:050.847 JLINK_GetHardwareVersion()
T772C 000:050.872 - 0.036ms returns 97000
T772C 000:050.903 JLINK_GetDLLVersion()
T772C 000:050.927 - 0.036ms returns 78200
T772C 000:050.953 JLINK_GetOEMString(...)
T772C 000:050.979 JLINK_GetFirmwareString(...)
T772C 000:051.003 - 0.036ms
T772C 000:051.044 JLINK_GetDLLVersion()
T772C 000:051.069 - 0.037ms returns 78200
T772C 000:051.095 JLINK_GetCompileDateTime()
T772C 000:051.119 - 0.036ms
T772C 000:051.150 JLINK_GetFirmwareString(...)
T772C 000:051.175 - 0.036ms
T772C 000:051.203 JLINK_GetHardwareVersion()
T772C 000:051.228 - 0.036ms returns 97000
T772C 000:051.257 JLINK_GetSN()
T772C 000:051.282 - 0.036ms returns 20721895
T772C 000:051.311 JLINK_GetOEMString(...)
T772C 000:051.344 JLINK_TIF_Select(JLINKARM_TIF_SWD)
T772C 000:053.008 - 1.686ms returns 0x00
T772C 000:053.048 JLINK_HasError()
T772C 000:053.094 JLINK_SetSpeed(5000)
T772C 000:053.523 - 0.447ms
T772C 000:053.558 JLINK_GetId()
T772C 000:053.922   InitTarget() start
T772C 000:053.969    J-Link Script File: Executing InitTarget()
T772C 000:065.556   InitTarget() end
T772C 000:066.536   Found SW-DP with ID 0x2BA01477
T772C 000:069.489   DPIDR: 0x2BA01477
T772C 000:069.540   CoreSight SoC-400 or earlier
T772C 000:069.581   Scanning AP map to find all available APs
T772C 000:070.457   AP[1]: Stopped AP scan as end of AP map has been reached
T772C 000:070.507   AP[0]: AHB-AP (IDR: 0x24770011)
T772C 000:070.549   Iterating through AP map to find AHB-AP to use
T772C 000:071.697   AP[0]: Core found
T772C 000:071.761   AP[0]: AHB-AP ROM base: 0xE00FF000
T772C 000:072.422   CPUID register: 0x410FC241. Implementer code: 0x41 (ARM)
T772C 000:072.505   Found Cortex-M4 r0p1, Little endian.
T772C 000:073.261   -- Max. mem block: 0x00010C40
T772C 000:073.814   CPU_ReadMem(4 bytes @ 0xE000EDF0)
T772C 000:074.294   CPU_ReadMem(4 bytes @ 0xE0002000)
T772C 000:074.774   FPUnit: 6 code (BP) slots and 2 literal slots
T772C 000:074.819   CPU_ReadMem(4 bytes @ 0xE000EDFC)
T772C 000:075.262   CPU_WriteMem(4 bytes @ 0xE000EDFC)
T772C 000:075.751   CPU_ReadMem(4 bytes @ 0xE0001000)
T772C 000:076.248   CPU_WriteMem(4 bytes @ 0xE0001000)
T772C 000:076.732   CPU_ReadMem(4 bytes @ 0xE000ED88)
T772C 000:077.228   CPU_WriteMem(4 bytes @ 0xE000ED88)
T772C 000:077.700   CPU_ReadMem(4 bytes @ 0xE000ED88)
T772C 000:078.158   CPU_WriteMem(4 bytes @ 0xE000ED88)
T772C 000:078.643   CoreSight components:
T772C 000:078.700   ROMTbl[0] @ E00FF000
T772C 000:078.739   CPU_ReadMem(64 bytes @ 0xE00FF000)
T772C 000:079.526   CPU_ReadMem(32 bytes @ 0xE000EFE0)
T772C 000:080.141   [0][0]: E000E000 CID B105E00D PID 000BB00C SCS-M7
T772C 000:080.182   CPU_ReadMem(32 bytes @ 0xE0001FE0)
T772C 000:080.780   [0][1]: E0001000 CID B105E00D PID 003BB002 DWT
T772C 000:080.841   CPU_ReadMem(32 bytes @ 0xE0002FE0)
T772C 000:081.527   [0][2]: E0002000 CID B105E00D PID 002BB003 FPB
T772C 000:081.574   CPU_ReadMem(32 bytes @ 0xE0000FE0)
T772C 000:082.144   [0][3]: E0000000 CID B105E00D PID 003BB001 ITM
T772C 000:082.185   CPU_ReadMem(32 bytes @ 0xE0040FE0)
T772C 000:082.813   [0][4]: E0040000 CID B105900D PID 000BB9A1 TPIU
T772C 000:082.860   CPU_ReadMem(32 bytes @ 0xE0041FE0)
T772C 000:083.500   [0][5]: E0041000 CID B105900D PID 000BB925 ETM
T772C 000:083.963 - 30.425ms returns 0x2BA01477
T772C 000:084.011 JLINK_GetDLLVersion()
T772C 000:084.036 - 0.037ms returns 78200
T772C 000:084.065 JLINK_CORE_GetFound()
T772C 000:084.089 - 0.036ms returns 0xE0000FF
T772C 000:084.118 JLINK_GetDebugInfo(0x100 = JLINKARM_ROM_TABLE_ADDR_INDEX)
T772C 000:084.152   Value=0xE00FF000
T772C 000:084.189 - 0.083ms returns 0
T772C 000:084.273 JLINK_GetDebugInfo(0x100 = JLINKARM_ROM_TABLE_ADDR_INDEX)
T772C 000:084.302   Value=0xE00FF000
T772C 000:084.339 - 0.077ms returns 0
T772C 000:084.365 JLINK_GetDebugInfo(0x101 = JLINKARM_DEBUG_INFO_ETM_ADDR_INDEX)
T772C 000:084.389   Value=0xE0041000
T772C 000:084.425 - 0.072ms returns 0
T772C 000:084.460 JLINK_ReadMemEx(0xE0041FD0, 0x20 Bytes, Flags = 0x02000004)
T772C 000:084.507   CPU_ReadMem(32 bytes @ 0xE0041FD0)
T772C 000:085.146   Data:  04 00 00 00 00 00 00 00 00 00 00 00 00 00 00 00 ...
T772C 000:085.187 - 0.739ms returns 32 (0x20)
T772C 000:085.215 JLINK_GetDebugInfo(0x102 = JLINKARM_DEBUG_INFO_MTB_ADDR_INDEX)
T772C 000:085.239   Value=0x00000000
T772C 000:085.275 - 0.072ms returns 0
T772C 000:085.301 JLINK_GetDebugInfo(0x103 = JLINKARM_DEBUG_INFO_TPIU_ADDR_INDEX)
T772C 000:085.325   Value=0xE0040000
T772C 000:085.361 - 0.072ms returns 0
T772C 000:085.387 JLINK_GetDebugInfo(0x104 = JLINKARM_DEBUG_INFO_ITM_ADDR_INDEX)
T772C 000:085.411   Value=0xE0000000
T772C 000:085.447 - 0.071ms returns 0
T772C 000:085.473 JLINK_GetDebugInfo(0x105 = JLINKARM_DEBUG_INFO_DWT_ADDR_INDEX)
T772C 000:085.497   Value=0xE0001000
T772C 000:085.533 - 0.072ms returns 0
T772C 000:085.559 JLINK_GetDebugInfo(0x106 = JLINKARM_DEBUG_INFO_FPB_ADDR_INDEX)
T772C 000:085.583   Value=0xE0002000
T772C 000:085.619 - 0.072ms returns 0
T772C 000:085.645 JLINK_GetDebugInfo(0x107 = JLINKARM_DEBUG_INFO_NVIC_ADDR_INDEX)
T772C 000:085.669   Value=0xE000E000
T772C 000:085.705 - 0.072ms returns 0
T772C 000:085.731 JLINK_GetDebugInfo(0x10C = JLINKARM_DEBUG_INFO_DBG_ADDR_INDEX)
T772C 000:085.755   Value=0xE000EDF0
T772C 000:085.791 - 0.072ms returns 0
T772C 000:085.816 JLINK_GetDebugInfo(0x01 = Unknown)
T772C 000:085.846   Value=0x00000001
T772C 000:085.882 - 0.077ms returns 0
T772C 000:085.908 JLINK_ReadMemU32(0xE000ED00, 0x1 Items)
T772C 000:085.937   CPU_ReadMem(4 bytes @ 0xE000ED00)
T772C 000:086.414   Data:  41 C2 0F 41
T772C 000:086.455   Debug reg: CPUID
T772C 000:086.491 - 0.594ms returns 1 (0x1)
T772C 000:086.518 JLINK_GetDebugInfo(0x10F = JLINKARM_DEBUG_INFO_HAS_CORTEX_M_SECURITY_EXT_INDEX)
T772C 000:086.543   Value=0x00000000
T772C 000:086.579 - 0.072ms returns 0
T772C 000:086.605 JLINK_HasError()
T772C 000:086.631 JLINK_SetResetType(JLINKARM_CM3_RESET_TYPE_NORMAL)
T772C 000:086.656 - 0.036ms returns JLINKARM_CM3_RESET_TYPE_NORMAL
T772C 000:086.682 JLINK_Reset()
T772C 000:086.739   CPU is running
T772C 000:086.777   CPU_WriteMem(4 bytes @ 0xE000EDF0)
T772C 000:087.251   CPU is running
T772C 000:087.292   CPU_WriteMem(4 bytes @ 0xE000EDFC)
T772C 000:087.808   Reset: Halt core after reset via DEMCR.VC_CORERESET.
T772C 000:088.681   Reset: Reset device via AIRCR.SYSRESETREQ.
T772C 000:088.727   CPU is running
T772C 000:088.766   CPU_WriteMem(4 bytes @ 0xE000ED0C)
T772C 000:141.544   CPU_ReadMem(4 bytes @ 0xE000EDF0)
T772C 000:142.140   CPU_ReadMem(4 bytes @ 0xE000EDF0)
T772C 000:142.671   CPU is running
T772C 000:142.720   CPU_WriteMem(4 bytes @ 0xE000EDF0)
T772C 000:143.227   CPU is running
T772C 000:143.268   CPU_WriteMem(4 bytes @ 0xE000EDFC)
T772C 000:149.765   CPU_ReadMem(4 bytes @ 0xE000EDF0)
T772C 000:152.518   CPU_WriteMem(4 bytes @ 0xE0002000)
T772C 000:153.012   CPU_ReadMem(4 bytes @ 0xE000EDFC)
T772C 000:153.529   CPU_ReadMem(4 bytes @ 0xE0001000)
T772C 000:154.081 - 67.421ms
T772C 000:154.137 JLINK_HasError()
T772C 000:154.176 JLINK_ReadReg(R15 (PC))
T772C 000:154.212 - 0.052ms returns 0x080001A0
T772C 000:154.247 JLINK_ReadReg(XPSR)
T772C 000:154.272 - 0.037ms returns 0x01000000
T772C 000:154.305 JLINK_Halt()
T772C 000:154.329 - 0.035ms returns 0x00
T772C 000:154.357 JLINK_ReadMemU32(0xE000EDF0, 0x1 Items)
T772C 000:154.385   CPU_ReadMem(4 bytes @ 0xE000EDF0)
T772C 000:154.871   Data:  03 00 03 00
T772C 000:154.914   Debug reg: DHCSR
T772C 000:154.950 - 0.604ms returns 1 (0x1)
T772C 000:154.992 JLINK_WriteU32_64(0xE000EDF0, 0xA05F0003)
T772C 000:155.020   Debug reg: DHCSR
T772C 000:155.273   CPU_WriteMem(4 bytes @ 0xE000EDF0)
T772C 000:155.753 - 0.784ms returns 0 (0x00000000)
T772C 000:155.801 JLINK_WriteU32_64(0xE000EDFC, 0x01000000)
T772C 000:155.827   Debug reg: DEMCR
T772C 000:155.872   CPU_WriteMem(4 bytes @ 0xE000EDFC)
T772C 000:156.376 - 0.592ms returns 0 (0x00000000)
T772C 000:156.454 JLINK_GetHWStatus(...)
T772C 000:156.816 - 0.380ms returns 0
T772C 000:156.869 JLINK_GetNumBPUnits(Type = 0xFFFFFF00)
T772C 000:156.894 - 0.037ms returns 0x06
T772C 000:156.920 JLINK_GetNumBPUnits(Type = 0xF0)
T772C 000:156.944 - 0.035ms returns 0x2000
T772C 000:156.969 JLINK_GetNumWPUnits()
T772C 000:156.993 - 0.035ms returns 4
T772C 000:157.028 JLINK_GetSpeed()
T772C 000:157.052 - 0.036ms returns 4000
T772C 000:157.083 JLINK_ReadMemU32(0xE000E004, 0x1 Items)
T772C 000:157.112   CPU_ReadMem(4 bytes @ 0xE000E004)
T772C 000:157.621   Data:  02 00 00 00
T772C 000:157.665 - 0.594ms returns 1 (0x1)
T772C 000:157.693 JLINK_ReadMemU32(0xE000E004, 0x1 Items)
T772C 000:157.721   CPU_ReadMem(4 bytes @ 0xE000E004)
T772C 000:158.229   Data:  02 00 00 00
T772C 000:158.270 - 0.588ms returns 1 (0x1)
T772C 000:158.297 JLINK_WriteMemEx(0xE0001000, 0x0000001C Bytes, Flags = 0x02000004)
T772C 000:158.321   Data:  01 00 00 00 00 00 00 00 00 00 00 00 00 00 00 00 ...
T772C 000:158.362   CPU_WriteMem(28 bytes @ 0xE0001000)
T772C 000:158.919 - 0.644ms returns 0x1C
T772C 000:158.958 JLINK_HasError()
T772C 000:159.007 JLINK_ReadReg(R15 (PC))
T772C 000:159.034 - 0.039ms returns 0x080001A0
T772C 000:159.060 JLINK_ReadReg(XPSR)
T772C 000:159.085 - 0.036ms returns 0x01000000
T772C 000:162.785 JLINK_ReadMemEx(0xE0001004, 0x4 Bytes, Flags = 0x02000000)
T772C 000:162.827   Data:  00 00 00 00
T772C 000:162.863   Debug reg: DWT_CYCCNT
T772C 000:162.899 - 0.125ms returns 4 (0x4)
T772C 000:249.128 JLINK_HasError()
T772C 000:249.191 JLINK_SetResetType(JLINKARM_CM3_RESET_TYPE_NORMAL)
T772C 000:249.217 - 0.037ms returns JLINKARM_CM3_RESET_TYPE_NORMAL
T772C 000:249.243 JLINK_Reset()
T772C 000:249.278   CPU_WriteMem(4 bytes @ 0xE000EDF0)
T772C 000:249.822   CPU_WriteMem(4 bytes @ 0xE000EDFC)
T772C 000:250.394   Reset: Halt core after reset via DEMCR.VC_CORERESET.
T772C 000:251.218   Reset: Reset device via AIRCR.SYSRESETREQ.
T772C 000:251.269   CPU_WriteMem(4 bytes @ 0xE000ED0C)
T772C 000:304.893   CPU_ReadMem(4 bytes @ 0xE000EDF0)
T772C 000:305.435   CPU_ReadMem(4 bytes @ 0xE000EDF0)
T772C 000:305.944   CPU_WriteMem(4 bytes @ 0xE000EDF0)
T772C 000:306.438   CPU_WriteMem(4 bytes @ 0xE000EDFC)
T772C 000:312.063   CPU_ReadMem(4 bytes @ 0xE000EDF0)
T772C 000:314.760   CPU_WriteMem(4 bytes @ 0xE0002000)
T772C 000:315.274   CPU_ReadMem(4 bytes @ 0xE000EDFC)
T772C 000:315.753   CPU_ReadMem(4 bytes @ 0xE0001000)
T772C 000:316.234 - 67.007ms
T772C 000:316.296 JLINK_HasError()
T772C 000:316.328 JLINK_ReadReg(R15 (PC))
T772C 000:316.355 - 0.042ms returns 0x080001A0
T772C 000:316.388 JLINK_ReadReg(XPSR)
T772C 000:316.413 - 0.037ms returns 0x01000000
T772C 000:317.054 JLINK_ReadMemEx(0x080001A0, 0x3C Bytes, Flags = 0x02000000)
T772C 000:317.094   CPU_ReadMem(128 bytes @ 0x08000180)
T772C 000:318.092    -- Updating C cache (128 bytes @ 0x08000180)
T772C 000:318.150    -- Read from C cache (60 bytes @ 0x080001A0)
T772C 000:318.192   Data:  06 48 80 47 06 48 00 47 FE E7 FE E7 FE E7 FE E7 ...
T772C 000:318.227 - 1.184ms returns 60 (0x3C)
T772C 000:318.255 JLINK_ReadMemEx(0x080001A0, 0x2 Bytes, Flags = 0x02000000)
T772C 000:318.279    -- Read from C cache (2 bytes @ 0x080001A0)
T772C 000:318.315   Data:  06 48
T772C 000:318.350 - 0.107ms returns 2 (0x2)
T772C 000:318.437 JLINK_ReadMemEx(0x080001A2, 0x2 Bytes, Flags = 0x02000000)
T772C 000:318.464    -- Read from C cache (2 bytes @ 0x080001A2)
T772C 000:318.500   Data:  80 47
T772C 000:318.535 - 0.109ms returns 2 (0x2)
T772C 000:318.568 JLINK_ReadMemEx(0x080001A2, 0x2 Bytes, Flags = 0x02000000)
T772C 000:318.593    -- Read from C cache (2 bytes @ 0x080001A2)
T772C 000:318.628   Data:  80 47
T772C 000:318.664 - 0.107ms returns 2 (0x2)
T772C 000:318.689 JLINK_ReadMemEx(0x080001A4, 0x3C Bytes, Flags = 0x02000000)
T772C 000:318.714    -- Read from C cache (60 bytes @ 0x080001A4)
T772C 000:318.749   Data:  06 48 00 47 FE E7 FE E7 FE E7 FE E7 FE E7 FE E7 ...
T772C 000:318.784 - 0.107ms returns 60 (0x3C)
T772C 000:318.810 JLINK_ReadMemEx(0x080001A4, 0x2 Bytes, Flags = 0x02000000)
T772C 000:318.835    -- Read from C cache (2 bytes @ 0x080001A4)
T772C 000:318.870   Data:  06 48
T772C 000:318.905 - 0.106ms returns 2 (0x2)
T772C 001:755.082 JLINK_ReadMemEx(0x080001A4, 0x3C Bytes, Flags = 0x02000000)
T772C 001:755.156    -- Read from C cache (60 bytes @ 0x080001A4)
T772C 001:755.203   Data:  06 48 00 47 FE E7 FE E7 FE E7 FE E7 FE E7 FE E7 ...
T772C 001:755.239 - 0.169ms returns 60 (0x3C)
T772C 001:755.266 JLINK_ReadMemEx(0x080001A4, 0x2 Bytes, Flags = 0x02000000)
T772C 001:755.292    -- Read from C cache (2 bytes @ 0x080001A4)
T772C 001:755.328   Data:  06 48
T772C 001:755.365 - 0.111ms returns 2 (0x2)
T772C 001:755.392 JLINK_ReadMemEx(0x080001A6, 0x2 Bytes, Flags = 0x02000000)
T772C 001:755.417    -- Read from C cache (2 bytes @ 0x080001A6)
T772C 001:755.453   Data:  00 47
T772C 001:755.490 - 0.109ms returns 2 (0x2)
T772C 002:310.769 JLINK_HasError()
T772C 002:310.836 JLINK_ReadReg(R0)
T772C 002:311.339 - 0.520ms returns 0x00000000
T772C 002:311.372 JLINK_ReadReg(R1)
T772C 002:311.398 - 0.037ms returns 0x00000000
T772C 002:311.424 JLINK_ReadReg(R2)
T772C 002:311.449 - 0.037ms returns 0x00000000
T772C 002:311.475 JLINK_ReadReg(R3)
T772C 002:311.500 - 0.036ms returns 0x00000000
T772C 002:311.525 JLINK_ReadReg(R4)
T772C 002:311.550 - 0.036ms returns 0x00000000
T772C 002:311.576 JLINK_ReadReg(R5)
T772C 002:311.600 - 0.036ms returns 0x00000000
T772C 002:311.626 JLINK_ReadReg(R6)
T772C 002:311.653 - 0.038ms returns 0x00000000
T772C 002:311.680 JLINK_ReadReg(R7)
T772C 002:311.704 - 0.036ms returns 0x00000000
T772C 002:311.730 JLINK_ReadReg(R8)
T772C 002:311.769 - 0.051ms returns 0x00000000
T772C 002:311.795 JLINK_ReadReg(R9)
T772C 002:311.820 - 0.036ms returns 0x00000000
T772C 002:311.845 JLINK_ReadReg(R10)
T772C 002:311.870 - 0.036ms returns 0x00000000
T772C 002:311.896 JLINK_ReadReg(R11)
T772C 002:311.921 - 0.036ms returns 0x00000000
T772C 002:311.947 JLINK_ReadReg(R12)
T772C 002:311.971 - 0.036ms returns 0x00000000
T772C 002:311.997 JLINK_ReadReg(R13 (SP))
T772C 002:312.022 - 0.037ms returns 0x20008098
T772C 002:312.048 JLINK_ReadReg(R14)
T772C 002:312.072 - 0.036ms returns 0xFFFFFFFF
T772C 002:312.117 JLINK_ReadReg(R15 (PC))
T772C 002:312.143 - 0.037ms returns 0x080001A0
T772C 002:312.171 JLINK_ReadReg(XPSR)
T772C 002:312.196 - 0.037ms returns 0x01000000
T772C 002:312.225 JLINK_ReadReg(MSP)
T772C 002:312.250 - 0.036ms returns 0x20008098
T772C 002:312.278 JLINK_ReadReg(PSP)
T772C 002:312.303 - 0.038ms returns 0x00000000
T772C 002:312.333 JLINK_ReadReg(CFBP)
T772C 002:312.358 - 0.037ms returns 0x00000000
T772C 002:312.387 JLINK_ReadReg(FPSCR)
T772C 002:315.718 - 3.356ms returns 0x00000000
T772C 002:315.772 JLINK_ReadReg(FPS0)
T772C 002:315.805 - 0.048ms returns 0x00000000
T772C 002:315.842 JLINK_ReadReg(FPS1)
T772C 002:315.873 - 0.046ms returns 0x00000000
T772C 002:315.909 JLINK_ReadReg(FPS2)
T772C 002:315.940 - 0.046ms returns 0x00000000
T772C 002:315.975 JLINK_ReadReg(FPS3)
T772C 002:316.006 - 0.046ms returns 0x00000000
T772C 002:316.042 JLINK_ReadReg(FPS4)
T772C 002:316.074 - 0.046ms returns 0x00000000
T772C 002:316.116 JLINK_ReadReg(FPS5)
T772C 002:316.147 - 0.046ms returns 0x00000000
T772C 002:316.183 JLINK_ReadReg(FPS6)
T772C 002:316.214 - 0.046ms returns 0x00000000
T772C 002:316.250 JLINK_ReadReg(FPS7)
T772C 002:316.281 - 0.046ms returns 0x00000000
T772C 002:316.316 JLINK_ReadReg(FPS8)
T772C 002:316.347 - 0.046ms returns 0x00000000
T772C 002:316.380 JLINK_ReadReg(FPS9)
T772C 002:316.404 - 0.036ms returns 0x00000000
T772C 002:316.432 JLINK_ReadReg(FPS10)
T772C 002:316.457 - 0.036ms returns 0x00000000
T772C 002:316.486 JLINK_ReadReg(FPS11)
T772C 002:316.510 - 0.036ms returns 0x00000000
T772C 002:316.538 JLINK_ReadReg(FPS12)
T772C 002:316.563 - 0.036ms returns 0x00000000
T772C 002:316.591 JLINK_ReadReg(FPS13)
T772C 002:316.616 - 0.036ms returns 0x00000000
T772C 002:316.644 JLINK_ReadReg(FPS14)
T772C 002:316.668 - 0.036ms returns 0x00000000
T772C 002:316.697 JLINK_ReadReg(FPS15)
T772C 002:316.721 - 0.036ms returns 0x00000000
T772C 002:316.749 JLINK_ReadReg(FPS16)
T772C 002:316.774 - 0.036ms returns 0x00000000
T772C 002:316.802 JLINK_ReadReg(FPS17)
T772C 002:316.827 - 0.036ms returns 0x00000000
T772C 002:316.855 JLINK_ReadReg(FPS18)
T772C 002:316.880 - 0.036ms returns 0x00000000
T772C 002:316.908 JLINK_ReadReg(FPS19)
T772C 002:316.933 - 0.036ms returns 0x00000000
T772C 002:316.961 JLINK_ReadReg(FPS20)
T772C 002:316.986 - 0.036ms returns 0x00000000
T772C 002:317.014 JLINK_ReadReg(FPS21)
T772C 002:317.039 - 0.036ms returns 0x00000000
T772C 002:317.067 JLINK_ReadReg(FPS22)
T772C 002:317.092 - 0.036ms returns 0x00000000
T772C 002:317.120 JLINK_ReadReg(FPS23)
T772C 002:317.145 - 0.036ms returns 0x00000000
T772C 002:317.173 JLINK_ReadReg(FPS24)
T772C 002:317.197 - 0.036ms returns 0x00000000
T772C 002:317.226 JLINK_ReadReg(FPS25)
T772C 002:317.250 - 0.036ms returns 0x00000000
T772C 002:317.279 JLINK_ReadReg(FPS26)
T772C 002:317.303 - 0.036ms returns 0x00000000
T772C 002:317.332 JLINK_ReadReg(FPS27)
T772C 002:317.356 - 0.037ms returns 0x00000000
T772C 002:317.385 JLINK_ReadReg(FPS28)
T772C 002:317.410 - 0.037ms returns 0x00000000
T772C 002:317.438 JLINK_ReadReg(FPS29)
T772C 002:317.470 - 0.044ms returns 0x00000000
T772C 002:317.499 JLINK_ReadReg(FPS30)
T772C 002:317.524 - 0.037ms returns 0x00000000
T772C 002:317.553 JLINK_ReadReg(FPS31)
T772C 002:317.578 - 0.037ms returns 0x00000000
T772C 002:317.656 JLINK_ReadMemEx(0x20000000, 0x4 Bytes, Flags = 0x02000000)
T772C 002:317.702   CPU_ReadMem(64 bytes @ 0x20000000)
T772C 002:318.497    -- Updating C cache (64 bytes @ 0x20000000)
T772C 002:318.573    -- Read from C cache (4 bytes @ 0x20000000)
T772C 002:318.622   Data:  FE E7 0A E0
T772C 002:318.668 - 1.027ms returns 4 (0x4)
T772C 002:318.945 JLINK_ReadMemEx(0x20000000, 0x4 Bytes, Flags = 0x02000000)
T772C 002:318.983    -- Read from C cache (4 bytes @ 0x20000000)
T772C 002:319.028   Data:  FE E7 0A E0
T772C 002:319.083 - 0.172ms returns 4 (0x4)
T772C 002:319.156 JLINK_ReadMemEx(0x20000000, 0x4 Bytes, Flags = 0x02000000)
T772C 002:319.190    -- Read from C cache (4 bytes @ 0x20000000)
T772C 002:319.236   Data:  FE E7 0A E0
T772C 002:319.280 - 0.139ms returns 4 (0x4)
T772C 002:325.553 JLINK_ReadMemEx(0x20000004, 0x4 Bytes, Flags = 0x02000000)
T772C 002:325.598    -- Read from C cache (4 bytes @ 0x20000004)
T772C 002:325.635   Data:  0D 78 2D 06
T772C 002:325.672 - 0.131ms returns 4 (0x4)
T772C 002:325.796 JLINK_ReadMemEx(0x20000004, 0x4 Bytes, Flags = 0x02000000)
T772C 002:325.825    -- Read from C cache (4 bytes @ 0x20000004)
T772C 002:325.862   Data:  0D 78 2D 06
T772C 002:325.898 - 0.118ms returns 4 (0x4)
T772C 002:325.942 JLINK_ReadMemEx(0x20000004, 0x4 Bytes, Flags = 0x02000000)
T772C 002:325.969    -- Read from C cache (4 bytes @ 0x20000004)
T772C 002:326.005   Data:  0D 78 2D 06
T772C 002:326.041 - 0.111ms returns 4 (0x4)
T137C 002:399.505 JLINK_ReadMemEx(0x080001A0, 0x2 Bytes, Flags = 0x02000000)
T137C 002:399.577    -- Read from C cache (2 bytes @ 0x080001A0)
T137C 002:399.624   Data:  06 48
T137C 002:399.669 - 0.179ms returns 2 (0x2)
T137C 002:399.703 JLINK_HasError()
T137C 002:399.738 JLINK_SetBPEx(Addr = 0x08002288, Type = 0xFFFFFFF2)
T137C 002:399.788 - 0.066ms returns 0x00000001
T137C 002:399.822 JLINK_HasError()
T137C 002:399.855 JLINK_HasError()
T137C 002:399.887 JLINK_Go()
T137C 002:399.926   CPU_WriteMem(4 bytes @ 0xE0002000)
T137C 002:400.488   CPU_ReadMem(4 bytes @ 0xE0001000)
T137C 002:400.950   CPU_WriteMem(4 bytes @ 0xE0002008)
T137C 002:400.992   CPU_WriteMem(4 bytes @ 0xE000200C)
T137C 002:401.031   CPU_WriteMem(4 bytes @ 0xE0002010)
T137C 002:401.075   CPU_WriteMem(4 bytes @ 0xE0002014)
T137C 002:401.111   CPU_WriteMem(4 bytes @ 0xE0002018)
T137C 002:401.148   CPU_WriteMem(4 bytes @ 0xE000201C)
T137C 002:402.348   CPU_WriteMem(4 bytes @ 0xE0001004)
T137C 002:403.382 - 3.516ms
T137C 002:504.090 JLINK_HasError()
T137C 002:504.199 JLINK_IsHalted()
T137C 002:506.545 - 2.367ms returns TRUE
T137C 002:506.584 JLINK_HasError()
T137C 002:506.611 JLINK_Halt()
T137C 002:506.635 - 0.036ms returns 0x00
T137C 002:506.662 JLINK_IsHalted()
T137C 002:506.693 - 0.046ms returns TRUE
T137C 002:506.726 JLINK_IsHalted()
T137C 002:506.756 - 0.045ms returns TRUE
T137C 002:506.789 JLINK_IsHalted()
T137C 002:506.819 - 0.046ms returns TRUE
T137C 002:506.853 JLINK_HasError()
T137C 002:506.886 JLINK_ReadReg(R15 (PC))
T137C 002:506.920 - 0.048ms returns 0x08002288
T137C 002:506.953 JLINK_ReadReg(XPSR)
T137C 002:506.985 - 0.046ms returns 0x61000000
T137C 002:507.020 JLINK_HasError()
T137C 002:507.064 JLINK_ClrBPEx(BPHandle = 0x00000001)
T137C 002:507.102 - 0.057ms returns 0x00
T137C 002:507.139 JLINK_HasError()
T137C 002:507.172 JLINK_HasError()
T137C 002:507.205 JLINK_ReadMemU32(0xE000ED30, 0x1 Items)
T137C 002:507.243   CPU_ReadMem(4 bytes @ 0xE000ED30)
T137C 002:507.817   Data:  02 00 00 00
T137C 002:507.864 - 0.671ms returns 1 (0x1)
T137C 002:507.892 JLINK_ReadMemU32(0xE0001028, 0x1 Items)
T137C 002:507.922   CPU_ReadMem(4 bytes @ 0xE0001028)
T137C 002:508.437   Data:  00 00 00 00
T137C 002:508.479   Debug reg: DWT_FUNC[0]
T137C 002:508.515 - 0.634ms returns 1 (0x1)
T137C 002:508.543 JLINK_ReadMemU32(0xE0001038, 0x1 Items)
T137C 002:508.571   CPU_ReadMem(4 bytes @ 0xE0001038)
T137C 002:509.070   Data:  00 02 00 00
T137C 002:509.125   Debug reg: DWT_FUNC[1]
T137C 002:509.162 - 0.631ms returns 1 (0x1)
T137C 002:509.189 JLINK_ReadMemU32(0xE0001048, 0x1 Items)
T137C 002:509.218   CPU_ReadMem(4 bytes @ 0xE0001048)
T137C 002:509.673   Data:  00 00 00 00
T137C 002:509.714   Debug reg: DWT_FUNC[2]
T137C 002:509.751 - 0.573ms returns 1 (0x1)
T137C 002:509.779 JLINK_ReadMemU32(0xE0001058, 0x1 Items)
T137C 002:509.807   CPU_ReadMem(4 bytes @ 0xE0001058)
T137C 002:510.299   Data:  00 00 00 00
T137C 002:510.341   Debug reg: DWT_FUNC[3]
T137C 002:510.377 - 0.610ms returns 1 (0x1)
T137C 002:510.428 JLINK_HasError()
T137C 002:510.456 JLINK_ReadReg(R0)
T137C 002:510.483 - 0.039ms returns 0x08002289
T137C 002:510.509 JLINK_ReadReg(R1)
T137C 002:510.534 - 0.037ms returns 0x20008098
T137C 002:510.561 JLINK_ReadReg(R2)
T137C 002:510.586 - 0.037ms returns 0x00000000
T137C 002:510.612 JLINK_ReadReg(R3)
T137C 002:510.637 - 0.037ms returns 0x08001E95
T137C 002:510.664 JLINK_ReadReg(R4)
T137C 002:510.689 - 0.037ms returns 0x0800265C
T137C 002:510.715 JLINK_ReadReg(R5)
T137C 002:510.740 - 0.037ms returns 0x0800265C
T137C 002:510.766 JLINK_ReadReg(R6)
T137C 002:510.791 - 0.036ms returns 0x00000000
T137C 002:510.817 JLINK_ReadReg(R7)
T137C 002:510.841 - 0.037ms returns 0x00000000
T137C 002:510.867 JLINK_ReadReg(R8)
T137C 002:510.892 - 0.037ms returns 0x00000000
T137C 002:510.922 JLINK_ReadReg(R9)
T137C 002:510.950 - 0.044ms returns 0x00000000
T137C 002:510.980 JLINK_ReadReg(R10)
T137C 002:511.005 - 0.037ms returns 0x00000000
T137C 002:511.034 JLINK_ReadReg(R11)
T137C 002:511.064 - 0.042ms returns 0x00000000
T137C 002:511.090 JLINK_ReadReg(R12)
T137C 002:511.117 - 0.038ms returns 0x00000000
T137C 002:511.143 JLINK_ReadReg(R13 (SP))
T137C 002:511.168 - 0.037ms returns 0x20008098
T137C 002:511.194 JLINK_ReadReg(R14)
T137C 002:511.219 - 0.036ms returns 0x080002C9
T137C 002:511.245 JLINK_ReadReg(R15 (PC))
T137C 002:511.270 - 0.037ms returns 0x08002288
T137C 002:511.296 JLINK_ReadReg(XPSR)
T137C 002:511.321 - 0.037ms returns 0x61000000
T137C 002:511.347 JLINK_ReadReg(MSP)
T137C 002:511.372 - 0.036ms returns 0x20008098
T137C 002:511.398 JLINK_ReadReg(PSP)
T137C 002:511.422 - 0.037ms returns 0x00000000
T137C 002:511.448 JLINK_ReadReg(CFBP)
T137C 002:511.473 - 0.037ms returns 0x00000000
T137C 002:511.500 JLINK_ReadReg(FPSCR)
T137C 002:514.846 - 3.373ms returns 0x00000000
T137C 002:514.893 JLINK_ReadReg(FPS0)
T137C 002:514.927 - 0.049ms returns 0x00000000
T137C 002:514.960 JLINK_ReadReg(FPS1)
T137C 002:514.991 - 0.046ms returns 0x00000000
T137C 002:515.024 JLINK_ReadReg(FPS2)
T137C 002:515.079 - 0.073ms returns 0x00000000
T137C 002:515.116 JLINK_ReadReg(FPS3)
T137C 002:515.150 - 0.049ms returns 0x00000000
T137C 002:515.182 JLINK_ReadReg(FPS4)
T137C 002:515.213 - 0.046ms returns 0x00000000
T137C 002:515.246 JLINK_ReadReg(FPS5)
T137C 002:515.277 - 0.046ms returns 0x00000000
T137C 002:515.309 JLINK_ReadReg(FPS6)
T137C 002:515.340 - 0.045ms returns 0x00000000
T137C 002:515.372 JLINK_ReadReg(FPS7)
T137C 002:515.403 - 0.046ms returns 0x00000000
T137C 002:515.436 JLINK_ReadReg(FPS8)
T137C 002:515.467 - 0.046ms returns 0x00000000
T137C 002:515.499 JLINK_ReadReg(FPS9)
T137C 002:515.530 - 0.046ms returns 0x00000000
T137C 002:515.563 JLINK_ReadReg(FPS10)
T137C 002:515.594 - 0.046ms returns 0x00000000
T137C 002:515.626 JLINK_ReadReg(FPS11)
T137C 002:515.658 - 0.047ms returns 0x00000000
T137C 002:515.689 JLINK_ReadReg(FPS12)
T137C 002:515.713 - 0.037ms returns 0x00000000
T137C 002:515.739 JLINK_ReadReg(FPS13)
T137C 002:515.764 - 0.036ms returns 0x00000000
T137C 002:515.790 JLINK_ReadReg(FPS14)
T137C 002:515.815 - 0.037ms returns 0x00000000
T137C 002:515.841 JLINK_ReadReg(FPS15)
T137C 002:515.866 - 0.036ms returns 0x00000000
T137C 002:515.892 JLINK_ReadReg(FPS16)
T137C 002:515.916 - 0.036ms returns 0x00000000
T137C 002:515.942 JLINK_ReadReg(FPS17)
T137C 002:515.967 - 0.037ms returns 0x00000000
T137C 002:515.993 JLINK_ReadReg(FPS18)
T137C 002:516.018 - 0.039ms returns 0x00000000
T137C 002:516.050 JLINK_ReadReg(FPS19)
T137C 002:516.075 - 0.037ms returns 0x00000000
T137C 002:516.102 JLINK_ReadReg(FPS20)
T137C 002:516.126 - 0.037ms returns 0x00000000
T137C 002:516.152 JLINK_ReadReg(FPS21)
T137C 002:516.177 - 0.037ms returns 0x00000000
T137C 002:516.203 JLINK_ReadReg(FPS22)
T137C 002:516.228 - 0.037ms returns 0x00000000
T137C 002:516.254 JLINK_ReadReg(FPS23)
T137C 002:516.279 - 0.036ms returns 0x00000000
T137C 002:516.305 JLINK_ReadReg(FPS24)
T137C 002:516.329 - 0.036ms returns 0x00000000
T137C 002:516.356 JLINK_ReadReg(FPS25)
T137C 002:516.380 - 0.037ms returns 0x00000000
T137C 002:516.406 JLINK_ReadReg(FPS26)
T137C 002:516.431 - 0.037ms returns 0x00000000
T137C 002:516.457 JLINK_ReadReg(FPS27)
T137C 002:516.482 - 0.037ms returns 0x00000000
T137C 002:516.508 JLINK_ReadReg(FPS28)
T137C 002:516.533 - 0.037ms returns 0x00000000
T137C 002:516.559 JLINK_ReadReg(FPS29)
T137C 002:516.591 - 0.044ms returns 0x00000000
T137C 002:516.617 JLINK_ReadReg(FPS30)
T137C 002:516.641 - 0.037ms returns 0x00000000
T137C 002:516.668 JLINK_ReadReg(FPS31)
T137C 002:516.692 - 0.037ms returns 0x00000000
T772C 002:521.181 JLINK_ReadMemEx(0x20000000, 0x4 Bytes, Flags = 0x02000000)
T772C 002:521.234   CPU_ReadMem(64 bytes @ 0x20000000)
T772C 002:521.988    -- Updating C cache (64 bytes @ 0x20000000)
T772C 002:522.034    -- Read from C cache (4 bytes @ 0x20000000)
T772C 002:522.078   Data:  00 00 00 00
T772C 002:522.114 - 0.945ms returns 4 (0x4)
T772C 002:522.392 JLINK_ReadMemEx(0x20000004, 0x4 Bytes, Flags = 0x02000000)
T772C 002:522.430    -- Read from C cache (4 bytes @ 0x20000004)
T772C 002:522.467   Data:  00 00 00 00
T772C 002:522.503 - 0.123ms returns 4 (0x4)
T137C 005:910.128 JLINK_ReadMemEx(0x08002288, 0x2 Bytes, Flags = 0x02000000)
T137C 005:910.209   CPU_ReadMem(64 bytes @ 0x08002280)
T137C 005:910.980    -- Updating C cache (64 bytes @ 0x08002280)
T137C 005:911.028    -- Read from C cache (2 bytes @ 0x08002288)
T137C 005:911.064   Data:  A6 B0
T137C 005:911.100 - 0.983ms returns 2 (0x2)
T137C 005:911.129 JLINK_HasError()
T137C 005:911.155 JLINK_HasError()
T137C 005:911.181 JLINK_Go()
T137C 005:911.693   CPU_ReadMem(4 bytes @ 0xE0001000)
T137C 005:912.186   CPU_WriteMem(4 bytes @ 0xE0002008)
T137C 005:913.349 - 2.217ms
T137C 006:014.453 JLINK_HasError()
T137C 006:014.530 JLINK_IsHalted()
T137C 006:015.100 - 0.597ms returns FALSE
T137C 006:115.682 JLINK_HasError()
T137C 006:115.747 JLINK_IsHalted()
T137C 006:116.238 - 0.511ms returns FALSE
T137C 006:216.812 JLINK_HasError()
T137C 006:216.897 JLINK_IsHalted()
T137C 006:217.420 - 0.545ms returns FALSE
T137C 006:318.262 JLINK_HasError()
T137C 006:318.354 JLINK_IsHalted()
T137C 006:318.951 - 0.624ms returns FALSE
T137C 006:419.609 JLINK_HasError()
T137C 006:419.679 JLINK_IsHalted()
T137C 006:420.180 - 0.522ms returns FALSE
T137C 006:520.832 JLINK_HasError()
T137C 006:520.918 JLINK_HasError()
T137C 006:520.951 JLINK_ReadMemU32(0xE0001004, 0x1 Items)
T137C 006:520.997   CPU_ReadMem(4 bytes @ 0xE0001004)
T137C 006:521.610   Data:  DA A0 16 06
T137C 006:521.662   Debug reg: DWT_CYCCNT
T137C 006:521.698 - 0.758ms returns 1 (0x1)
T772C 006:524.862 JLINK_ReadMemEx(0x20000000, 0x4 Bytes, Flags = 0x02000000)
T772C 006:524.908   CPU_ReadMem(4 bytes @ 0x20000000)
T772C 006:525.428   Data:  00 00 00 00
T772C 006:525.488 - 0.638ms returns 4 (0x4)
T772C 006:525.818 JLINK_ReadMemEx(0x20000004, 0x4 Bytes, Flags = 0x02000000)
T772C 006:525.887   CPU_ReadMem(4 bytes @ 0x20000004)
T772C 006:526.429   Data:  00 00 00 00
T772C 006:526.482 - 0.675ms returns 4 (0x4)
T137C 006:531.297 JLINK_IsHalted()
T137C 006:531.792 - 0.517ms returns FALSE
T137C 006:632.622 JLINK_HasError()
T137C 006:632.699 JLINK_IsHalted()
T137C 006:633.221 - 0.543ms returns FALSE
T137C 006:734.130 JLINK_HasError()
T137C 006:734.200 JLINK_IsHalted()
T137C 006:734.919 - 0.747ms returns FALSE
T137C 006:835.103 JLINK_HasError()
T137C 006:835.178 JLINK_IsHalted()
T137C 006:835.715 - 0.559ms returns FALSE
T137C 006:936.479 JLINK_HasError()
T137C 006:936.557 JLINK_IsHalted()
T137C 006:937.573 - 1.078ms returns FALSE
T137C 007:037.918 JLINK_HasError()
T137C 007:037.994 JLINK_HasError()
T137C 007:038.027 JLINK_ReadMemU32(0xE0001004, 0x1 Items)
T137C 007:038.072   Data:  DA A0 16 06
T137C 007:038.119   Debug reg: DWT_CYCCNT
T137C 007:038.165 - 0.152ms returns 1 (0x1)
T772C 007:041.662 JLINK_ReadMemEx(0x20000000, 0x4 Bytes, Flags = 0x02000000)
T772C 007:041.711   CPU_ReadMem(4 bytes @ 0x20000000)
T772C 007:042.269   Data:  00 00 00 00
T772C 007:042.310 - 0.659ms returns 4 (0x4)
T772C 007:042.346 JLINK_ReadMemEx(0x20000004, 0x4 Bytes, Flags = 0x02000000)
T772C 007:042.374   CPU_ReadMem(4 bytes @ 0x20000004)
T772C 007:042.906   Data:  00 00 00 00
T772C 007:042.965 - 0.633ms returns 4 (0x4)
T137C 007:047.714 JLINK_IsHalted()
T137C 007:048.259 - 0.572ms returns FALSE
T137C 007:148.568 JLINK_HasError()
T137C 007:148.641 JLINK_IsHalted()
T137C 007:149.209 - 0.605ms returns FALSE
T137C 007:249.970 JLINK_HasError()
T137C 007:250.036 JLINK_IsHalted()
T137C 007:250.672 - 0.658ms returns FALSE
T137C 007:351.387 JLINK_HasError()
T137C 007:351.475 JLINK_IsHalted()
T137C 007:352.002 - 0.547ms returns FALSE
T137C 007:452.241 JLINK_HasError()
T137C 007:452.314 JLINK_IsHalted()
T137C 007:452.907 - 0.620ms returns FALSE
T137C 007:553.264 JLINK_HasError()
T137C 007:553.346 JLINK_HasError()
T137C 007:553.450 JLINK_ReadMemU32(0xE0001004, 0x1 Items)
T137C 007:553.495   Data:  DA A0 16 06
T137C 007:553.542   Debug reg: DWT_CYCCNT
T137C 007:553.587 - 0.151ms returns 1 (0x1)
T772C 007:556.705 JLINK_ReadMemEx(0x20000000, 0x4 Bytes, Flags = 0x02000000)
T772C 007:556.751   CPU_ReadMem(4 bytes @ 0x20000000)
T772C 007:557.325   Data:  00 00 00 00
T772C 007:557.396 - 0.706ms returns 4 (0x4)
T772C 007:557.441 JLINK_ReadMemEx(0x20000004, 0x4 Bytes, Flags = 0x02000000)
T772C 007:557.477   CPU_ReadMem(4 bytes @ 0x20000004)
T772C 007:558.030   Data:  00 00 00 00
T772C 007:558.089 - 0.662ms returns 4 (0x4)
T137C 007:562.614 JLINK_IsHalted()
T137C 007:563.200 - 0.617ms returns FALSE
T137C 007:664.046 JLINK_HasError()
T137C 007:664.117 JLINK_IsHalted()
T137C 007:664.659 - 0.568ms returns FALSE
T137C 007:765.688 JLINK_HasError()
T137C 007:765.792 JLINK_IsHalted()
T137C 007:766.362 - 0.602ms returns FALSE
T137C 007:867.252 JLINK_HasError()
T137C 007:867.315 JLINK_IsHalted()
T137C 007:867.876 - 0.581ms returns FALSE
T137C 007:968.252 JLINK_HasError()
T137C 007:968.338 JLINK_IsHalted()
T137C 007:969.251 - 0.976ms returns FALSE
T137C 008:070.041 JLINK_HasError()
T137C 008:070.132 JLINK_HasError()
T137C 008:070.165 JLINK_ReadMemU32(0xE0001004, 0x1 Items)
T137C 008:070.210   Data:  DA A0 16 06
T137C 008:070.256   Debug reg: DWT_CYCCNT
T137C 008:070.300 - 0.150ms returns 1 (0x1)
T772C 008:073.367 JLINK_ReadMemEx(0x20000000, 0x4 Bytes, Flags = 0x02000000)
T772C 008:073.420   CPU_ReadMem(4 bytes @ 0x20000000)
T772C 008:073.984   Data:  00 00 00 00
T772C 008:074.044 - 0.693ms returns 4 (0x4)
T772C 008:074.093 JLINK_ReadMemEx(0x20000004, 0x4 Bytes, Flags = 0x02000000)
T772C 008:074.131   CPU_ReadMem(4 bytes @ 0x20000004)
T772C 008:074.670   Data:  00 00 00 00
T772C 008:074.718 - 0.636ms returns 4 (0x4)
T137C 008:079.457 JLINK_IsHalted()
T137C 008:080.013 - 0.583ms returns FALSE
T137C 008:180.363 JLINK_HasError()
T137C 008:180.458 JLINK_IsHalted()
T137C 008:181.085 - 0.663ms returns FALSE
T137C 008:281.985 JLINK_HasError()
T137C 008:282.062 JLINK_IsHalted()
T137C 008:282.610 - 0.583ms returns FALSE
T137C 008:383.707 JLINK_HasError()
T137C 008:383.786 JLINK_IsHalted()
T137C 008:384.533 - 0.775ms returns FALSE
T137C 008:484.819 JLINK_HasError()
T137C 008:484.911 JLINK_IsHalted()
T137C 008:485.478 - 0.607ms returns FALSE
T137C 008:586.472 JLINK_HasError()
T137C 008:586.540 JLINK_HasError()
T137C 008:586.566 JLINK_ReadMemU32(0xE0001004, 0x1 Items)
T137C 008:586.603   Data:  DA A0 16 06
T137C 008:586.641   Debug reg: DWT_CYCCNT
T137C 008:586.677 - 0.122ms returns 1 (0x1)
T772C 008:589.501 JLINK_ReadMemEx(0x20000000, 0x4 Bytes, Flags = 0x02000000)
T772C 008:589.562   CPU_ReadMem(4 bytes @ 0x20000000)
T772C 008:590.158   Data:  00 00 00 00
T772C 008:590.219 - 0.733ms returns 4 (0x4)
T772C 008:590.269 JLINK_ReadMemEx(0x20000004, 0x4 Bytes, Flags = 0x02000000)
T772C 008:590.307   CPU_ReadMem(4 bytes @ 0x20000004)
T772C 008:590.790   Data:  00 00 00 00
T772C 008:590.841 - 0.587ms returns 4 (0x4)
T137C 008:595.812 JLINK_IsHalted()
T137C 008:596.334 - 0.544ms returns FALSE
T137C 008:696.967 JLINK_HasError()
T137C 008:697.040 JLINK_IsHalted()
T137C 008:697.729 - 0.724ms returns FALSE
T137C 008:797.869 JLINK_HasError()
T137C 008:797.937 JLINK_IsHalted()
T137C 008:798.569 - 0.660ms returns FALSE
T137C 008:899.489 JLINK_HasError()
T137C 008:899.578 JLINK_IsHalted()
T137C 008:900.222 - 0.692ms returns FALSE
T137C 009:001.055 JLINK_HasError()
T137C 009:001.137 JLINK_IsHalted()
T137C 009:001.690 - 0.581ms returns FALSE
T137C 009:102.185 JLINK_HasError()
T137C 009:102.270 JLINK_HasError()
T137C 009:102.303 JLINK_ReadMemU32(0xE0001004, 0x1 Items)
T137C 009:102.349   Data:  DA A0 16 06
T137C 009:102.396   Debug reg: DWT_CYCCNT
T137C 009:102.441 - 0.152ms returns 1 (0x1)
T772C 009:105.777 JLINK_ReadMemEx(0x20000000, 0x4 Bytes, Flags = 0x02000000)
T772C 009:105.836   CPU_ReadMem(4 bytes @ 0x20000000)
T772C 009:106.416   Data:  00 00 00 00
T772C 009:106.484 - 0.724ms returns 4 (0x4)
T772C 009:106.530 JLINK_ReadMemEx(0x20000004, 0x4 Bytes, Flags = 0x02000000)
T772C 009:106.560   CPU_ReadMem(4 bytes @ 0x20000004)
T772C 009:107.113   Data:  00 00 00 00
T772C 009:107.177 - 0.659ms returns 4 (0x4)
T137C 009:111.566 JLINK_IsHalted()
T137C 009:112.179 - 0.634ms returns FALSE
T137C 009:213.116 JLINK_HasError()
T137C 009:213.201 JLINK_IsHalted()
T137C 009:213.768 - 0.596ms returns FALSE
T137C 009:314.528 JLINK_HasError()
T137C 009:314.615 JLINK_IsHalted()
T137C 009:315.217 - 0.631ms returns FALSE
T137C 009:415.970 JLINK_HasError()
T137C 009:416.068 JLINK_Halt()
T137C 009:418.590 - 2.550ms returns 0x00
T137C 009:418.640 JLINK_IsHalted()
T137C 009:418.672 - 0.046ms returns TRUE
T137C 009:418.704 JLINK_IsHalted()
T137C 009:418.734 - 0.044ms returns TRUE
T137C 009:418.765 JLINK_IsHalted()
T137C 009:418.795 - 0.044ms returns TRUE
T137C 009:418.827 JLINK_HasError()
T137C 009:418.860 JLINK_ReadReg(R15 (PC))
T137C 009:418.893 - 0.047ms returns 0x080005B4
T137C 009:418.925 JLINK_ReadReg(XPSR)
T137C 009:418.956 - 0.046ms returns 0x81000000
T137C 009:419.010 JLINK_HasError()
T137C 009:419.045 JLINK_HasError()
T137C 009:419.080 JLINK_ReadMemU32(0xE000ED30, 0x1 Items)
T137C 009:419.118   CPU_ReadMem(4 bytes @ 0xE000ED30)
T137C 009:419.658   Data:  01 00 00 00
T137C 009:419.708 - 0.643ms returns 1 (0x1)
T137C 009:419.761 JLINK_ReadMemU32(0xE0001028, 0x1 Items)
T137C 009:419.796   CPU_ReadMem(4 bytes @ 0xE0001028)
T137C 009:420.357   Data:  00 00 00 00
T137C 009:420.402   Debug reg: DWT_FUNC[0]
T137C 009:420.437 - 0.688ms returns 1 (0x1)
T137C 009:420.471 JLINK_ReadMemU32(0xE0001038, 0x1 Items)
T137C 009:420.500   CPU_ReadMem(4 bytes @ 0xE0001038)
T137C 009:421.000   Data:  00 02 00 00
T137C 009:421.039   Debug reg: DWT_FUNC[1]
T137C 009:421.074 - 0.615ms returns 1 (0x1)
T137C 009:421.107 JLINK_ReadMemU32(0xE0001048, 0x1 Items)
T137C 009:421.134   CPU_ReadMem(4 bytes @ 0xE0001048)
T137C 009:421.614   Data:  00 00 00 00
T137C 009:421.653   Debug reg: DWT_FUNC[2]
T137C 009:421.689 - 0.593ms returns 1 (0x1)
T137C 009:421.720 JLINK_ReadMemU32(0xE0001058, 0x1 Items)
T137C 009:421.748   CPU_ReadMem(4 bytes @ 0xE0001058)
T137C 009:422.203   Data:  00 00 00 00
T137C 009:422.242   Debug reg: DWT_FUNC[3]
T137C 009:422.277 - 0.568ms returns 1 (0x1)
T137C 009:422.354 JLINK_HasError()
T137C 009:422.383 JLINK_ReadReg(R0)
T137C 009:422.409 - 0.037ms returns 0x00000DAF
T137C 009:422.434 JLINK_ReadReg(R1)
T137C 009:422.458 - 0.035ms returns 0x20007F64
T137C 009:422.484 JLINK_ReadReg(R2)
T137C 009:422.508 - 0.035ms returns 0x20008050
T137C 009:422.533 JLINK_ReadReg(R3)
T137C 009:422.557 - 0.035ms returns 0x20008080
T137C 009:422.582 JLINK_ReadReg(R4)
T137C 009:422.606 - 0.035ms returns 0x00000002
T137C 009:422.632 JLINK_ReadReg(R5)
T137C 009:422.655 - 0.036ms returns 0x00000DAE
T137C 009:422.681 JLINK_ReadReg(R6)
T137C 009:422.705 - 0.035ms returns 0x00000000
T137C 009:422.730 JLINK_ReadReg(R7)
T137C 009:422.754 - 0.035ms returns 0x00000000
T137C 009:422.779 JLINK_ReadReg(R8)
T137C 009:422.803 - 0.035ms returns 0x00000000
T137C 009:422.828 JLINK_ReadReg(R9)
T137C 009:422.852 - 0.035ms returns 0x00000000
T137C 009:422.884 JLINK_ReadReg(R10)
T137C 009:422.913 - 0.041ms returns 0x00000000
T137C 009:422.940 JLINK_ReadReg(R11)
T137C 009:422.964 - 0.035ms returns 0x00000000
T137C 009:422.989 JLINK_ReadReg(R12)
T137C 009:423.013 - 0.035ms returns 0x20007F94
T137C 009:423.038 JLINK_ReadReg(R13 (SP))
T137C 009:423.062 - 0.036ms returns 0x20007FF0
T137C 009:423.088 JLINK_ReadReg(R14)
T137C 009:423.112 - 0.035ms returns 0x080003A9
T137C 009:423.137 JLINK_ReadReg(R15 (PC))
T137C 009:423.161 - 0.036ms returns 0x080005B4
T137C 009:423.186 JLINK_ReadReg(XPSR)
T137C 009:423.210 - 0.035ms returns 0x81000000
T137C 009:423.235 JLINK_ReadReg(MSP)
T137C 009:423.259 - 0.035ms returns 0x20007FF0
T137C 009:423.285 JLINK_ReadReg(PSP)
T137C 009:423.308 - 0.035ms returns 0x00000000
T137C 009:423.334 JLINK_ReadReg(CFBP)
T137C 009:423.358 - 0.035ms returns 0x04000000
T137C 009:423.387 JLINK_ReadReg(FPSCR)
T137C 009:426.716 - 3.366ms returns 0x00000010
T137C 009:426.776 JLINK_ReadReg(FPS0)
T137C 009:426.809 - 0.049ms returns 0xC3A23069
T137C 009:426.842 JLINK_ReadReg(FPS1)
T137C 009:426.873 - 0.046ms returns 0xC0B52ABE
T137C 009:426.908 JLINK_ReadReg(FPS2)
T137C 009:426.939 - 0.046ms returns 0x3F2F5C35
T137C 009:426.972 JLINK_ReadReg(FPS3)
T137C 009:427.003 - 0.046ms returns 0x3ECB4396
T137C 009:427.035 JLINK_ReadReg(FPS4)
T137C 009:427.066 - 0.046ms returns 0x3F800000
T137C 009:427.099 JLINK_ReadReg(FPS5)
T137C 009:427.129 - 0.045ms returns 0x3F800000
T137C 009:427.164 JLINK_ReadReg(FPS6)
T137C 009:427.195 - 0.046ms returns 0x3D4CCCCD
T137C 009:427.227 JLINK_ReadReg(FPS7)
T137C 009:427.258 - 0.045ms returns 0x00000000
T137C 009:427.289 JLINK_ReadReg(FPS8)
T137C 009:427.320 - 0.045ms returns 0x40C00000
T137C 009:427.352 JLINK_ReadReg(FPS9)
T137C 009:427.382 - 0.044ms returns 0x45435000
T137C 009:427.413 JLINK_ReadReg(FPS10)
T137C 009:427.443 - 0.045ms returns 0x00000000
T137C 009:427.475 JLINK_ReadReg(FPS11)
T137C 009:427.505 - 0.045ms returns 0x00000000
T137C 009:427.537 JLINK_ReadReg(FPS12)
T137C 009:427.567 - 0.045ms returns 0x441C4000
T137C 009:427.599 JLINK_ReadReg(FPS13)
T137C 009:427.629 - 0.045ms returns 0x00000000
T137C 009:427.661 JLINK_ReadReg(FPS14)
T137C 009:427.691 - 0.045ms returns 0x00000000
T137C 009:427.723 JLINK_ReadReg(FPS15)
T137C 009:427.753 - 0.045ms returns 0x00000000
T137C 009:427.785 JLINK_ReadReg(FPS16)
T137C 009:427.815 - 0.044ms returns 0x00000000
T137C 009:427.847 JLINK_ReadReg(FPS17)
T137C 009:427.877 - 0.045ms returns 0x00000000
T137C 009:427.908 JLINK_ReadReg(FPS18)
T137C 009:427.938 - 0.044ms returns 0x00000000
T137C 009:427.970 JLINK_ReadReg(FPS19)
T137C 009:428.000 - 0.045ms returns 0x00000000
T137C 009:428.032 JLINK_ReadReg(FPS20)
T137C 009:428.062 - 0.045ms returns 0x00000000
T137C 009:428.091 JLINK_ReadReg(FPS21)
T137C 009:428.115 - 0.036ms returns 0x00000000
T137C 009:428.141 JLINK_ReadReg(FPS22)
T137C 009:428.165 - 0.036ms returns 0x00000000
T137C 009:428.190 JLINK_ReadReg(FPS23)
T137C 009:428.214 - 0.036ms returns 0x00000000
T137C 009:428.240 JLINK_ReadReg(FPS24)
T137C 009:428.264 - 0.036ms returns 0x00000000
T137C 009:428.289 JLINK_ReadReg(FPS25)
T137C 009:428.313 - 0.036ms returns 0x00000000
T137C 009:428.338 JLINK_ReadReg(FPS26)
T137C 009:428.362 - 0.035ms returns 0x00000000
T137C 009:428.388 JLINK_ReadReg(FPS27)
T137C 009:428.412 - 0.036ms returns 0x00000000
T137C 009:428.445 JLINK_ReadReg(FPS28)
T137C 009:428.470 - 0.036ms returns 0x00000000
T137C 009:428.495 JLINK_ReadReg(FPS29)
T137C 009:428.519 - 0.036ms returns 0x00000000
T137C 009:428.545 JLINK_ReadReg(FPS30)
T137C 009:428.569 - 0.036ms returns 0x00000000
T137C 009:428.595 JLINK_ReadReg(FPS31)
T137C 009:428.619 - 0.036ms returns 0x00000000
T772C 009:432.078 JLINK_ReadMemEx(0x20000000, 0x4 Bytes, Flags = 0x02000000)
T772C 009:432.123   CPU_ReadMem(64 bytes @ 0x20000000)
T772C 009:432.874    -- Updating C cache (64 bytes @ 0x20000000)
T772C 009:432.918    -- Read from C cache (4 bytes @ 0x20000000)
T772C 009:432.953   Data:  00 00 00 00
T772C 009:432.989 - 0.923ms returns 4 (0x4)
T772C 009:433.027 JLINK_ReadMemEx(0x20000004, 0x4 Bytes, Flags = 0x02000000)
T772C 009:433.054    -- Read from C cache (4 bytes @ 0x20000004)
T772C 009:433.090   Data:  00 00 00 00
T772C 009:433.125 - 0.110ms returns 4 (0x4)
T772C 009:437.540 JLINK_ReadMemEx(0x080005B4, 0x3C Bytes, Flags = 0x02000000)
T772C 009:437.583   CPU_ReadMem(128 bytes @ 0x08000580)
T772C 009:438.600    -- Updating C cache (128 bytes @ 0x08000580)
T772C 009:438.644    -- Read from C cache (60 bytes @ 0x080005B4)
T772C 009:438.681   Data:  70 47 00 00 10 00 00 20 02 48 81 68 02 78 11 44 ...
T772C 009:438.716 - 1.188ms returns 60 (0x3C)
T772C 009:438.744 JLINK_ReadMemEx(0x080005B4, 0x2 Bytes, Flags = 0x02000000)
T772C 009:438.770    -- Read from C cache (2 bytes @ 0x080005B4)
T772C 009:438.805   Data:  70 47
T772C 009:438.841 - 0.109ms returns 2 (0x2)
T772C 009:438.872 JLINK_ReadMemEx(0x080005B6, 0x2 Bytes, Flags = 0x02000000)
T772C 009:438.898    -- Read from C cache (2 bytes @ 0x080005B6)
T772C 009:438.934   Data:  00 00
T772C 009:438.971 - 0.111ms returns 2 (0x2)
T772C 009:439.004 JLINK_ReadMemEx(0x080005B6, 0x2 Bytes, Flags = 0x02000000)
T772C 009:439.028    -- Read from C cache (2 bytes @ 0x080005B6)
T772C 009:439.064   Data:  00 00
T772C 009:439.100 - 0.109ms returns 2 (0x2)
T772C 009:439.127 JLINK_ReadMemEx(0x080005B8, 0x3C Bytes, Flags = 0x02000000)
T772C 009:439.151    -- Read from C cache (60 bytes @ 0x080005B8)
T772C 009:439.187   Data:  10 00 00 20 02 48 81 68 02 78 11 44 81 60 70 47 ...
T772C 009:439.223 - 0.108ms returns 60 (0x3C)
T772C 009:439.249 JLINK_ReadMemEx(0x080005B8, 0x2 Bytes, Flags = 0x02000000)
T772C 009:439.273    -- Read from C cache (2 bytes @ 0x080005B8)
T772C 009:439.309   Data:  10 00
T772C 009:439.344 - 0.109ms returns 2 (0x2)
T772C 009:439.375 JLINK_ReadMemEx(0x080005B8, 0x3C Bytes, Flags = 0x02000000)
T772C 009:439.399    -- Read from C cache (60 bytes @ 0x080005B8)
T772C 009:439.435   Data:  10 00 00 20 02 48 81 68 02 78 11 44 81 60 70 47 ...
T772C 009:439.471 - 0.108ms returns 60 (0x3C)
T772C 009:439.497 JLINK_ReadMemEx(0x080005B8, 0x2 Bytes, Flags = 0x02000000)
T772C 009:439.521    -- Read from C cache (2 bytes @ 0x080005B8)
T772C 009:439.558   Data:  10 00
T772C 009:439.593 - 0.108ms returns 2 (0x2)
T772C 009:439.619 JLINK_ReadMemEx(0x080005BA, 0x2 Bytes, Flags = 0x02000000)
T772C 009:439.643    -- Read from C cache (2 bytes @ 0x080005BA)
T772C 009:439.678   Data:  00 20
T772C 009:439.715 - 0.108ms returns 2 (0x2)
T772C 009:439.743 JLINK_ReadMemEx(0x080005BA, 0x2 Bytes, Flags = 0x02000000)
T772C 009:439.767    -- Read from C cache (2 bytes @ 0x080005BA)
T772C 009:439.803   Data:  00 20
T772C 009:439.838 - 0.107ms returns 2 (0x2)
T772C 009:439.864 JLINK_ReadMemEx(0x080005BC, 0x3C Bytes, Flags = 0x02000000)
T772C 009:439.888    -- Read from C cache (60 bytes @ 0x080005BC)
T772C 009:439.924   Data:  02 48 81 68 02 78 11 44 81 60 70 47 10 00 00 20 ...
T772C 009:439.959 - 0.107ms returns 60 (0x3C)
T772C 009:439.985 JLINK_ReadMemEx(0x080005BC, 0x2 Bytes, Flags = 0x02000000)
T772C 009:440.009    -- Read from C cache (2 bytes @ 0x080005BC)
T772C 009:440.045   Data:  02 48
T772C 009:440.080 - 0.107ms returns 2 (0x2)
T772C 012:323.870 JLINK_ReadMemEx(0x20000164, 0x4 Bytes, Flags = 0x02000000)
T772C 012:323.944   CPU_ReadMem(64 bytes @ 0x20000140)
T772C 012:324.704    -- Updating C cache (64 bytes @ 0x20000140)
T772C 012:324.756    -- Read from C cache (4 bytes @ 0x20000164)
T772C 012:324.792   Data:  00 00 00 00
T772C 012:324.828 - 0.970ms returns 4 (0x4)
T772C 012:324.865 JLINK_ReadMemEx(0x20000168, 0x4 Bytes, Flags = 0x02000000)
T772C 012:324.893    -- Read from C cache (4 bytes @ 0x20000168)
T772C 012:324.930   Data:  43 C7 16 B9
T772C 012:324.965 - 0.119ms returns 4 (0x4)
T772C 012:325.003 JLINK_ReadMemEx(0x2000016C, 0x4 Bytes, Flags = 0x02000000)
T772C 012:325.036    -- Read from C cache (4 bytes @ 0x2000016C)
T772C 012:325.073   Data:  43 C7 16 BA
T772C 012:325.109 - 0.117ms returns 4 (0x4)
T772C 012:325.137 JLINK_ReadMemEx(0x20000170, 0x4 Bytes, Flags = 0x02000000)
T772C 012:325.162    -- Read from C cache (4 bytes @ 0x20000170)
T772C 012:325.197   Data:  72 BE D8 BA
T772C 012:325.233 - 0.108ms returns 4 (0x4)
T772C 012:325.260 JLINK_ReadMemEx(0x20000174, 0x4 Bytes, Flags = 0x02000000)
T772C 012:325.285    -- Read from C cache (4 bytes @ 0x20000174)
T772C 012:325.320   Data:  3E 93 81 BB
T772C 012:325.356 - 0.107ms returns 4 (0x4)
T772C 012:325.383 JLINK_ReadMemEx(0x20000178, 0x4 Bytes, Flags = 0x02000000)
T772C 012:325.408    -- Read from C cache (4 bytes @ 0x20000178)
T772C 012:325.444   Data:  24 15 FC BB
T772C 012:325.479 - 0.107ms returns 4 (0x4)
T772C 012:325.507 JLINK_ReadMemEx(0x2000017C, 0x4 Bytes, Flags = 0x02000000)
T772C 012:325.531    -- Read from C cache (4 bytes @ 0x2000017C)
T772C 012:325.568   Data:  E3 90 57 BC
T772C 012:325.603 - 0.112ms returns 4 (0x4)
T772C 012:325.638 JLINK_ReadMemEx(0x20000180, 0x4 Bytes, Flags = 0x02000000)
T772C 012:325.665   CPU_ReadMem(64 bytes @ 0x20000180)
T772C 012:326.418    -- Updating C cache (64 bytes @ 0x20000180)
T772C 012:326.459    -- Read from C cache (4 bytes @ 0x20000180)
T772C 012:326.495   Data:  F3 36 AA BC
T772C 012:326.530 - 0.904ms returns 4 (0x4)
T772C 012:326.563 JLINK_ReadMemEx(0x20000184, 0x4 Bytes, Flags = 0x02000000)
T772C 012:326.590    -- Read from C cache (4 bytes @ 0x20000184)
T772C 012:326.625   Data:  B3 42 FD BC
T772C 012:326.660 - 0.109ms returns 4 (0x4)
T772C 012:326.688 JLINK_ReadMemEx(0x20000188, 0x4 Bytes, Flags = 0x02000000)
T772C 012:326.713    -- Read from C cache (4 bytes @ 0x20000188)
T772C 012:326.749   Data:  68 A3 33 BD
T772C 012:326.784 - 0.107ms returns 4 (0x4)
T772C 012:326.812 JLINK_ReadMemEx(0x2000018C, 0x4 Bytes, Flags = 0x02000000)
T772C 012:326.837    -- Read from C cache (4 bytes @ 0x2000018C)
T772C 012:326.872   Data:  F8 E5 75 BD
T772C 012:326.908 - 0.108ms returns 4 (0x4)
T772C 012:326.935 JLINK_ReadMemEx(0x20000190, 0x4 Bytes, Flags = 0x02000000)
T772C 012:326.960    -- Read from C cache (4 bytes @ 0x20000190)
T772C 012:326.996   Data:  38 DA A2 BD
T772C 012:327.031 - 0.108ms returns 4 (0x4)
T772C 012:327.059 JLINK_ReadMemEx(0x20000194, 0x4 Bytes, Flags = 0x02000000)
T772C 012:327.084    -- Read from C cache (4 bytes @ 0x20000194)
T772C 012:327.119   Data:  A9 DA D2 BD
T772C 012:327.155 - 0.108ms returns 4 (0x4)
T772C 012:327.183 JLINK_ReadMemEx(0x20000198, 0x4 Bytes, Flags = 0x02000000)
T772C 012:327.208    -- Read from C cache (4 bytes @ 0x20000198)
T772C 012:327.244   Data:  FF 8C 05 BE
T772C 012:327.279 - 0.107ms returns 4 (0x4)
T772C 012:327.307 JLINK_ReadMemEx(0x2000019C, 0x4 Bytes, Flags = 0x02000000)
T772C 012:327.331    -- Read from C cache (4 bytes @ 0x2000019C)
